
T2760 000:000 SEGGER J-Link V6.16c Log File (0001ms, 0001ms total)
T2760 000:000 DLL Compiled: Jun 16 2017 18:14:49 (0001ms, 0001ms total)
T2760 000:000 Logging started @ 2017-11-02 17:44 (0001ms, 0001ms total)
T2760 000:001 JLINK_SetWarnOutHandler(...) (0000ms, 0001ms total)
T2760 000:001 JLINK_OpenEx(...)
Firmware: J-Link V9 compiled Oct  6 2017 16:38:28
Hardware: V9.40
S/N: 269400110
OEM: SEGGER-EDU
Feature(s): FlashBP, GDBWEBSRV Webserver running on local port 19080 (0017ms, 0018ms total)
T2760 000:001   returns O.K. (0017ms, 0018ms total)
T2760 000:018 JLINK_GetEmuCaps()  returns 0xB9FF7BBF (0000ms, 0018ms total)
T2760 000:018 JLINK_TIF_GetAvailable(...) (0000ms, 0018ms total)
T2760 000:018 JLINK_SetErrorOutHandler(...) (0000ms, 0018ms total)
T2760 000:018 JLINK_ExecCommand("ProjectFile = "C:\Users\shutson1\Documents\GitHub\Tiva_Usb1\working\JLinkSettings.ini"", ...).   returns 0x00 (0101ms, 0119ms total)
T2760 000:120 JLINK_ExecCommand("Device = ATSAMD21G18A", ...). Device "ATSAMD21G18" selected.  returns 0x00 (0003ms, 0122ms total)
T2760 000:124 JLINK_ExecCommand("DisableConnectionTimeout", ...).   returns 0x01 (0000ms, 0122ms total)
T2760 000:124 JLINK_GetHardwareVersion()  returns 0x16F30 (0000ms, 0122ms total)
T2760 000:124 JLINK_GetDLLVersion()  returns 61603 (0000ms, 0122ms total)
T2760 000:129 JLINK_GetDLLVersion()  returns 61603 (0000ms, 0122ms total)
T2760 000:129 JLINK_GetCompileDateTime() (0000ms, 0122ms total)
T2760 000:130 JLINK_GetFirmwareString(...) (0000ms, 0122ms total)
T2760 000:131 JLINK_GetHardwareVersion()  returns 0x16F30 (0000ms, 0122ms total)
T2760 000:138 JLINK_TIF_Select(JLINKARM_TIF_SWD)  returns 0x00 (0000ms, 0122ms total)
T2760 000:138 JLINK_SetSpeed(5000) (0000ms, 0122ms total)
T2760 000:138 JLINK_GetId() >0x10B TIF>Found SW-DP with ID 0x0BC11477 >0x0D TIF> >0x28 TIF> >0x0D TIF> >0x28 TIF> >0x10B TIF>Found SW-DP with ID 0x0BC11477 >0x0D TIF> >0x28 TIF> >0x0D TIF> >0x28 TIF> >0x0D TIF> >0x28 TIF> >0x0D TIF> >0x28 TIF> >0x0D TIF> >0x21 TIF> >0x0D TIF> >0x28 TIF>Scanning APs, stopping at first AHB-AP found. >0x0D TIF> >0x28 TIF> >0x0D TIF> >0x21 TIF> >0x0D TIF> >0x21 TIF>AP[0] IDR: 0x04770031 (AHB-AP) >0x0D TIF> >0x28 TIF> >0x0D TIF> >0x21 TIF> >0x0D TIF> >0x21 TIF>
AHB-AP ROM: 0x41003000 (Base addr. of first ROM table) >0x0D TIF> >0x28 TIF> >0x0D TIF> >0x28 TIF> >0x0D TIF> >0x28 TIF> >0x0D TIF> >0x21 TIF> >0x0D TIF> >0x21 TIF> >0x0D TIF> >0x28 TIF> >0x0D TIF> >0x21 TIF> >0x0D TIF> >0x21 TIF>CPUID reg: 0x410CC601. Implementer code: 0x41 (ARM)Found Cortex-M0 r0p1, Little endian. -- CPU_ReadMem(4 bytes @ 0xE000EDF0) -- CPU_WriteMem(4 bytes @ 0xE000EDF0) -- CPU_ReadMem(4 bytes @ 0xE0002000)FPUnit: 4 code (BP) slots and 0 literal slots
 -- CPU_ReadMem(4 bytes @ 0xE000EDFC) -- CPU_WriteMem(4 bytes @ 0xE000EDFC) -- CPU_ReadMem(4 bytes @ 0xE0001000) -- CPU_WriteMem(4 bytes @ 0xE0001000)CoreSight components:ROMTbl[0] @ 41003000 -- CPU_ReadMem(16 bytes @ 0x41003000) -- CPU_ReadMem(16 bytes @ 0xE00FFFF0) -- CPU_ReadMem(16 bytes @ 0xE00FFFE0)ROMTbl[0][0]: E00FF000, CID: B105100D, PID: 000BB4C0 ROM TableROMTbl[1] @ E00FF000 -- CPU_ReadMem(16 bytes @ 0xE00FF000) -- CPU_ReadMem(16 bytes @ 0xE000EFF0) -- CPU_ReadMem(16 bytes @ 0xE000EFE0)
ROMTbl[1][0]: E000E000, CID: B105E00D, PID: 000BB008 SCS -- CPU_ReadMem(16 bytes @ 0xE0001FF0) -- CPU_ReadMem(16 bytes @ 0xE0001FE0)ROMTbl[1][1]: E0001000, CID: B105E00D, PID: 000BB00A DWT -- CPU_ReadMem(16 bytes @ 0xE0002FF0) -- CPU_ReadMem(16 bytes @ 0xE0002FE0)ROMTbl[1][2]: E0002000, CID: B105E00D, PID: 000BB00B FPB -- CPU_ReadMem(16 bytes @ 0x41006FF0) -- CPU_ReadMem(16 bytes @ 0x41006FE0)ROMTbl[0][1]: 41006000, CID: B105900D, PID: 001BB932 MTB-M0+ >0x0D TIF> >0x21 TIF>  returns 0x0BC11477
 (0061ms, 0183ms total)
T2760 000:199 JLINK_GetDLLVersion()  returns 61603 (0000ms, 0183ms total)
T2760 000:199 JLINK_CORE_GetFound()  returns 0x60000FF (0000ms, 0183ms total)
T2760 000:199 JLINK_GetDebugInfo(0x100 = JLINKARM_ROM_TABLE_ADDR_INDEX) -- Value=0x41003000  returns 0x00 (0000ms, 0183ms total)
T2760 000:202 JLINK_GetDebugInfo(0x100 = JLINKARM_ROM_TABLE_ADDR_INDEX) -- Value=0x41003000  returns 0x00 (0000ms, 0183ms total)
T2760 000:202 JLINK_GetDebugInfo(0x101 = JLINKARM_DEBUG_INFO_ETM_ADDR_INDEX) -- Value=0x00000000  returns 0x00 (0000ms, 0183ms total)
T2760 000:202 JLINK_ReadMemEx(0xE0041FF0, 0x0010 Bytes, ..., Flags = 0x02000004) -- CPU_ReadMem(16 bytes @ 0xE0041FF0) - Data: 00 00 00 00 00 00 00 00 00 00 00 00 00 00 00 00  returns 0x10 (0000ms, 0183ms total)
T2760 000:202 JLINK_GetDebugInfo(0x102 = JLINKARM_DEBUG_INFO_MTB_ADDR_INDEX) -- Value=0x41006000  returns 0x00 (0000ms, 0183ms total)
T2760 000:202 JLINK_CORE_GetFound()  returns 0x60000FF (0000ms, 0183ms total)
T2760 000:203 JLINK_GetDebugInfo(0x103 = JLINKARM_DEBUG_INFO_TPIU_ADDR_INDEX) -- Value=0x00000000  returns 0x00 (0000ms, 0184ms total)
T2760 000:203 JLINK_ReadMemEx(0xE0040FF0, 0x0010 Bytes, ..., Flags = 0x02000004) -- CPU_ReadMem(16 bytes @ 0xE0040FF0) - Data: 00 00 00 00 00 00 00 00 00 00 00 00 00 00 00 00  returns 0x10 (0000ms, 0184ms total)
T2760 000:203 JLINK_GetDebugInfo(0x104 = JLINKARM_DEBUG_INFO_ITM_ADDR_INDEX) -- Value=0xE0000000  returns 0x00 (0000ms, 0184ms total)
T2760 000:203 JLINK_GetDebugInfo(0x105 = JLINKARM_DEBUG_INFO_DWT_ADDR_INDEX) -- Value=0xE0001000  returns 0x00 (0000ms, 0184ms total)
T2760 000:203 JLINK_GetDebugInfo(0x106 = JLINKARM_DEBUG_INFO_FPB_ADDR_INDEX) -- Value=0xE0002000  returns 0x00 (0000ms, 0184ms total)
T2760 000:203 JLINK_GetDebugInfo(0x107 = JLINKARM_DEBUG_INFO_NVIC_ADDR_INDEX) -- Value=0xE000E000  returns 0x00 (0000ms, 0184ms total)
T2760 000:203 JLINK_GetDebugInfo(0x10C = JLINKARM_DEBUG_INFO_DBG_ADDR_INDEX) -- Value=0xE000EDF0  returns 0x00 (0000ms, 0184ms total)
T2760 000:203 JLINK_ReadMemU32(0xE000ED00, 0x0001 Items, ...) -- CPU_ReadMem(4 bytes @ 0xE000ED00) - Data: 01 C6 0C 41  returns 0x01 (0001ms, 0185ms total)
T2760 000:204 JLINK_GetDebugInfo(0x10F = JLINKARM_DEBUG_INFO_HAS_CORTEX_M_SECURITY_EXT_INDEX) -- Value=0x00000000  returns 0x00 (0000ms, 0185ms total)
T2760 000:204 JLINK_SetResetType(JLINKARM_CM3_RESET_TYPE_NORMAL)  returns JLINKARM_CM3_RESET_TYPE_NORMAL (0000ms, 0185ms total)
T2760 000:204 JLINK_Reset() -- CPU_ReadMem(4 bytes @ 0xE000EDFC) -- CPU_WriteMem(4 bytes @ 0xE000EDFC) -- CPU_WriteMem(4 bytes @ 0xE000ED0C) -- CPU_ReadMem(4 bytes @ 0xE000EDF0) -- CPU_ReadMem(4 bytes @ 0x41002100) -- CPU is running -- CPU_WriteMem(4 bytes @ 0xE000EDFC) -- CPU_WriteMem(4 bytes @ 0xE0002000) -- CPU_ReadMem(4 bytes @ 0xE000EDFC) -- CPU_ReadMem(4 bytes @ 0xE0001000) -- CPU_WriteMem(4 bytes @ 0xE0001000) (0010ms, 0195ms total)
T2760 000:214 JLINK_Halt()  returns 0x00 (0000ms, 0195ms total)
T2760 000:214 JLINK_ReadMemU32(0xE000EDF0, 0x0001 Items, ...) -- CPU_ReadMem(4 bytes @ 0xE000EDF0) - Data: 03 00 03 00  returns 0x01 (0001ms, 0196ms total)
T2760 000:215 JLINK_WriteU32(0xE000EDF0, 0xA05F0003) -- CPU_WriteMem(4 bytes @ 0xE000EDF0)  returns 0x00 (0000ms, 0196ms total)
T2760 000:215 JLINK_WriteU32(0xE000EDFC, 0x01000000) -- CPU_WriteMem(4 bytes @ 0xE000EDFC)  returns 0x00 (0000ms, 0196ms total)
T2760 000:232 JLINK_GetHWStatus(...)  returns 0x00 (0000ms, 0196ms total)
T2760 000:246 JLINK_GetNumBPUnits(Type = 0xFFFFFF00)  returns 0x04 (0000ms, 0196ms total)
T2760 000:246 JLINK_GetNumBPUnits(Type = 0xF0)  returns 0x2000 (0000ms, 0196ms total)
T2760 000:246 JLINK_GetNumWPUnits()  returns 0x02 (0000ms, 0196ms total)
T2760 000:260 JLINK_GetSpeed()  returns 0xFA0 (0000ms, 0196ms total)
T2760 000:269 JLINK_ReadMemU32(0xE000E004, 0x0001 Items, ...) -- CPU_ReadMem(4 bytes @ 0xE000E004) - Data: 00 00 00 00  returns 0x01 (0001ms, 0197ms total)
T2760 000:270 JLINK_Halt()  returns 0x00 (0000ms, 0197ms total)
T2760 000:270 JLINK_IsHalted()  returns TRUE (0000ms, 0197ms total)
T2760 000:276 JLINK_WriteMem(0x20000000, 0x00FC Bytes, ...) - Data: 00 BE 0A E0 0D 78 2D 06 68 40 08 24 40 00 00 D3 ... -- CPU_WriteMem(252 bytes @ 0x20000000)  returns 0xFC (0005ms, 0202ms total)
T2760 000:282 JLINK_WriteReg(R0, 0x00000000)  returns 0x00 (0000ms, 0202ms total)
T2760 000:282 JLINK_WriteReg(R1, 0x00B71B00)  returns 0x00 (0000ms, 0202ms total)
T2760 000:282 JLINK_WriteReg(R2, 0x00000001)  returns 0x00 (0000ms, 0202ms total)
T2760 000:282 JLINK_WriteReg(R3, 0x00000000)  returns 0x00 (0000ms, 0202ms total)
T2760 000:282 JLINK_WriteReg(R4, 0x00000000)  returns 0x00 (0000ms, 0202ms total)
T2760 000:282 JLINK_WriteReg(R5, 0x00000000)  returns 0x00 (0000ms, 0202ms total)
T2760 000:282 JLINK_WriteReg(R6, 0x00000000)  returns 0x00 (0000ms, 0202ms total)
T2760 000:282 JLINK_WriteReg(R7, 0x00000000)  returns 0x00 (0000ms, 0202ms total)
T2760 000:282 JLINK_WriteReg(R8, 0x00000000)  returns 0x00 (0000ms, 0202ms total)
T2760 000:282 JLINK_WriteReg(R9, 0x200000F4)  returns 0x00 (0000ms, 0202ms total)
T2760 000:282 JLINK_WriteReg(R10, 0x00000000)  returns 0x00 (0000ms, 0202ms total)
T2760 000:282 JLINK_WriteReg(R11, 0x00000000)  returns 0x00 (0000ms, 0202ms total)
T2760 000:282 JLINK_WriteReg(R12, 0x00000000)  returns 0x00 (0000ms, 0202ms total)
T2760 000:282 JLINK_WriteReg(R13 (SP), 0x20001000)  returns 0x00 (0000ms, 0202ms total)
T2760 000:282 JLINK_WriteReg(R14, 0x20000001)  returns 0x00 (0000ms, 0202ms total)
T2760 000:282 JLINK_WriteReg(R15 (PC), 0x20000038)  returns 0x00 (0000ms, 0202ms total)
T2760 000:282 JLINK_WriteReg(XPSR, 0x01000000)  returns 0x00 (0000ms, 0202ms total)
T2760 000:282 JLINK_WriteReg(MSP, 0x20001000)  returns 0x00 (0000ms, 0202ms total)
T2760 000:282 JLINK_WriteReg(PSP, 0x20001000)  returns 0x00 (0001ms, 0203ms total)
T2760 000:283 JLINK_WriteReg(CFBP, 0x00000000)  returns 0x00 (0000ms, 0203ms total)
T2760 000:283 JLINK_SetBPEx(Addr = 0x20000000, Type = 0xFFFFFFF2) -- CPU_ReadMem(2 bytes @ 0x20000000)  returns 0x00000001 (0000ms, 0203ms total)
T2760 000:283 JLINK_Go() -- CPU_WriteMem(2 bytes @ 0x20000000) -- CPU_ReadMem(4 bytes @ 0xE0001000) -- CPU_WriteMem(4 bytes @ 0xE0001000) -- CPU_WriteMem(4 bytes @ 0xE0002008) -- CPU_WriteMem(4 bytes @ 0xE000200C) -- CPU_WriteMem(4 bytes @ 0xE0002010) -- CPU_WriteMem(4 bytes @ 0xE0002014) -- CPU_WriteMem(4 bytes @ 0xE0001004) (0005ms, 0208ms total)
T2760 000:288 JLINK_IsHalted() -- CPU_ReadMem(2 bytes @ 0x20000000)  returns TRUE (0003ms, 0211ms total)
T2760 000:291 JLINK_ReadReg(R15 (PC))  returns 0x20000000 (0000ms, 0208ms total)
T2760 000:291 JLINK_ClrBPEx(BPHandle = 0x00000001)  returns 0x00 (0000ms, 0208ms total)
T2760 000:291 JLINK_ReadReg(R0)  returns 0x00000000 (0000ms, 0208ms total)
T2760 000:292 JLINK_WriteReg(R0, 0x00000000)  returns 0x00 (0000ms, 0208ms total)
T2760 000:292 JLINK_WriteReg(R1, 0x00004000)  returns 0x00 (0000ms, 0208ms total)
T2760 000:292 JLINK_WriteReg(R2, 0x000000FF)  returns 0x00 (0000ms, 0208ms total)
T2760 000:292 JLINK_WriteReg(R3, 0x00000000)  returns 0x00 (0000ms, 0208ms total)
T2760 000:292 JLINK_WriteReg(R4, 0x00000000)  returns 0x00 (0000ms, 0208ms total)
T2760 000:292 JLINK_WriteReg(R5, 0x00000000)  returns 0x00 (0000ms, 0208ms total)
T2760 000:292 JLINK_WriteReg(R6, 0x00000000)  returns 0x00 (0000ms, 0208ms total)
T2760 000:292 JLINK_WriteReg(R7, 0x00000000)  returns 0x00 (0000ms, 0208ms total)
T2760 000:292 JLINK_WriteReg(R8, 0x00000000)  returns 0x00 (0000ms, 0208ms total)
T2760 000:292 JLINK_WriteReg(R9, 0x200000F4)  returns 0x00 (0000ms, 0208ms total)
T2760 000:292 JLINK_WriteReg(R10, 0x00000000)  returns 0x00 (0000ms, 0208ms total)
T2760 000:293 JLINK_WriteReg(R11, 0x00000000)  returns 0x00 (0000ms, 0209ms total)
T2760 000:293 JLINK_WriteReg(R12, 0x00000000)  returns 0x00 (0000ms, 0209ms total)
T2760 000:293 JLINK_WriteReg(R13 (SP), 0x20001000)  returns 0x00 (0000ms, 0209ms total)
T2760 000:293 JLINK_WriteReg(R14, 0x20000001)  returns 0x00 (0000ms, 0209ms total)
T2760 000:293 JLINK_WriteReg(R15 (PC), 0x20000020)  returns 0x00 (0000ms, 0209ms total)
T2760 000:293 JLINK_WriteReg(XPSR, 0x01000000)  returns 0x00 (0000ms, 0209ms total)
T2760 000:293 JLINK_WriteReg(MSP, 0x20001000)  returns 0x00 (0000ms, 0209ms total)
T2760 000:293 JLINK_WriteReg(PSP, 0x20001000)  returns 0x00 (0000ms, 0209ms total)
T2760 000:293 JLINK_WriteReg(CFBP, 0x00000000)  returns 0x00 (0000ms, 0209ms total)
T2760 000:293 JLINK_SetBPEx(Addr = 0x20000000, Type = 0xFFFFFFF2)  returns 0x00000002 (0000ms, 0209ms total)
T2760 000:293 JLINK_Go() -- CPU_ReadMem(4 bytes @ 0xE0001000) -- CPU_WriteMem(4 bytes @ 0xE0001000) (0002ms, 0211ms total)
T2760 000:295 JLINK_IsHalted() -- CPU_ReadMem(2 bytes @ 0x20000000)  returns TRUE (0004ms, 0215ms total)
T2760 000:299 JLINK_ReadReg(R15 (PC))  returns 0x20000000 (0000ms, 0211ms total)
T2760 000:299 JLINK_ClrBPEx(BPHandle = 0x00000002)  returns 0x00 (0000ms, 0211ms total)
T2760 000:299 JLINK_ReadReg(R0)  returns 0x00000001 (0000ms, 0211ms total)
T2760 000:299 JLINK_WriteReg(R0, 0x00000000)  returns 0x00 (0000ms, 0211ms total)
T2760 000:299 JLINK_WriteReg(R1, 0x00004000)  returns 0x00 (0000ms, 0211ms total)
T2760 000:299 JLINK_WriteReg(R2, 0x000000FF)  returns 0x00 (0000ms, 0211ms total)
T2760 000:299 JLINK_WriteReg(R3, 0x00000000)  returns 0x00 (0000ms, 0211ms total)
T2760 000:299 JLINK_WriteReg(R4, 0x00000000)  returns 0x00 (0000ms, 0211ms total)
T2760 000:299 JLINK_WriteReg(R5, 0x00000000)  returns 0x00 (0000ms, 0211ms total)
T2760 000:299 JLINK_WriteReg(R6, 0x00000000)  returns 0x00 (0000ms, 0211ms total)
T2760 000:299 JLINK_WriteReg(R7, 0x00000000)  returns 0x00 (0000ms, 0211ms total)
T2760 000:299 JLINK_WriteReg(R8, 0x00000000)  returns 0x00 (0000ms, 0211ms total)
T2760 000:299 JLINK_WriteReg(R9, 0x200000F4)  returns 0x00 (0000ms, 0211ms total)
T2760 000:299 JLINK_WriteReg(R10, 0x00000000)  returns 0x00 (0000ms, 0211ms total)
T2760 000:299 JLINK_WriteReg(R11, 0x00000000)  returns 0x00 (0000ms, 0211ms total)
T2760 000:300 JLINK_WriteReg(R12, 0x00000000)  returns 0x00 (0000ms, 0211ms total)
T2760 000:300 JLINK_WriteReg(R13 (SP), 0x20001000)  returns 0x00 (0000ms, 0211ms total)
T2760 000:300 JLINK_WriteReg(R14, 0x20000001)  returns 0x00 (0000ms, 0211ms total)
T2760 000:300 JLINK_WriteReg(R15 (PC), 0x2000005A)  returns 0x00 (0000ms, 0211ms total)
T2760 000:300 JLINK_WriteReg(XPSR, 0x01000000)  returns 0x00 (0000ms, 0211ms total)
T2760 000:300 JLINK_WriteReg(MSP, 0x20001000)  returns 0x00 (0000ms, 0211ms total)
T2760 000:300 JLINK_WriteReg(PSP, 0x20001000)  returns 0x00 (0000ms, 0211ms total)
T2760 000:300 JLINK_WriteReg(CFBP, 0x00000000)  returns 0x00 (0000ms, 0211ms total)
T2760 000:300 JLINK_SetBPEx(Addr = 0x20000000, Type = 0xFFFFFFF2)  returns 0x00000003 (0000ms, 0211ms total)
T2760 000:300 JLINK_Go() -- CPU_ReadMem(4 bytes @ 0xE0001000) -- CPU_WriteMem(4 bytes @ 0xE0001000) (0002ms, 0213ms total)
T2760 000:302 JLINK_IsHalted() -- CPU_ReadMem(4 bytes @ 0x41002100)  returns FALSE (0001ms, 0214ms total)
T2760 000:384 JLINK_IsHalted() -- CPU_ReadMem(2 bytes @ 0x20000000)  returns TRUE (0002ms, 0215ms total)
T2760 000:386 JLINK_ReadReg(R15 (PC))  returns 0x20000000 (0000ms, 0213ms total)
T2760 000:386 JLINK_ClrBPEx(BPHandle = 0x00000003)  returns 0x00 (0000ms, 0213ms total)
T2760 000:386 JLINK_ReadReg(R0)  returns 0x00000000 (0000ms, 0213ms total)
T2760 000:387 JLINK_WriteReg(R0, 0x00000001)  returns 0x00 (0000ms, 0213ms total)
T2760 000:387 JLINK_WriteReg(R1, 0x00004000)  returns 0x00 (0000ms, 0213ms total)
T2760 000:387 JLINK_WriteReg(R2, 0x000000FF)  returns 0x00 (0000ms, 0213ms total)
T2760 000:387 JLINK_WriteReg(R3, 0x00000000)  returns 0x00 (0000ms, 0213ms total)
T2760 000:387 JLINK_WriteReg(R4, 0x00000000)  returns 0x00 (0000ms, 0213ms total)
T2760 000:387 JLINK_WriteReg(R5, 0x00000000)  returns 0x00 (0000ms, 0213ms total)
T2760 000:387 JLINK_WriteReg(R6, 0x00000000)  returns 0x00 (0000ms, 0213ms total)
T2760 000:387 JLINK_WriteReg(R7, 0x00000000)  returns 0x00 (0000ms, 0213ms total)
T2760 000:387 JLINK_WriteReg(R8, 0x00000000)  returns 0x00 (0000ms, 0213ms total)
T2760 000:387 JLINK_WriteReg(R9, 0x200000F4)  returns 0x00 (0000ms, 0213ms total)
T2760 000:387 JLINK_WriteReg(R10, 0x00000000)  returns 0x00 (0000ms, 0213ms total)
T2760 000:387 JLINK_WriteReg(R11, 0x00000000)  returns 0x00 (0000ms, 0213ms total)
T2760 000:387 JLINK_WriteReg(R12, 0x00000000)  returns 0x00 (0000ms, 0213ms total)
T2760 000:387 JLINK_WriteReg(R13 (SP), 0x20001000)  returns 0x00 (0000ms, 0213ms total)
T2760 000:387 JLINK_WriteReg(R14, 0x20000001)  returns 0x00 (0001ms, 0214ms total)
T2760 000:388 JLINK_WriteReg(R15 (PC), 0x20000056)  returns 0x00 (0000ms, 0214ms total)
T2760 000:388 JLINK_WriteReg(XPSR, 0x01000000)  returns 0x00 (0000ms, 0214ms total)
T2760 000:388 JLINK_WriteReg(MSP, 0x20001000)  returns 0x00 (0000ms, 0214ms total)
T2760 000:388 JLINK_WriteReg(PSP, 0x20001000)  returns 0x00 (0000ms, 0214ms total)
T2760 000:388 JLINK_WriteReg(CFBP, 0x00000000)  returns 0x00 (0000ms, 0214ms total)
T2760 000:388 JLINK_SetBPEx(Addr = 0x20000000, Type = 0xFFFFFFF2)  returns 0x00000004 (0000ms, 0214ms total)
T2760 000:388 JLINK_Go() -- CPU_ReadMem(4 bytes @ 0xE0001000) -- CPU_WriteMem(4 bytes @ 0xE0001000) (0001ms, 0215ms total)
T2760 000:390 JLINK_IsHalted() -- CPU_ReadMem(2 bytes @ 0x20000000)  returns TRUE (0002ms, 0218ms total)
T2760 000:392 JLINK_ReadReg(R15 (PC))  returns 0x20000000 (0000ms, 0216ms total)
T2760 000:392 JLINK_ClrBPEx(BPHandle = 0x00000004)  returns 0x00 (0000ms, 0216ms total)
T2760 000:392 JLINK_ReadReg(R0)  returns 0x00000000 (0000ms, 0216ms total)
T2760 000:450 JLINK_WriteMem(0x20000000, 0x00FC Bytes, ...) - Data: 00 BE 0A E0 0D 78 2D 06 68 40 08 24 40 00 00 D3 ... -- CPU_WriteMem(252 bytes @ 0x20000000)  returns 0xFC (0002ms, 0218ms total)
T2760 000:453 JLINK_WriteReg(R0, 0x00000000)  returns 0x00 (0000ms, 0218ms total)
T2760 000:453 JLINK_WriteReg(R1, 0x00B71B00)  returns 0x00 (0000ms, 0218ms total)
T2760 000:453 JLINK_WriteReg(R2, 0x00000002)  returns 0x00 (0000ms, 0218ms total)
T2760 000:453 JLINK_WriteReg(R3, 0x00000000)  returns 0x00 (0000ms, 0218ms total)
T2760 000:453 JLINK_WriteReg(R4, 0x00000000)  returns 0x00 (0000ms, 0218ms total)
T2760 000:453 JLINK_WriteReg(R5, 0x00000000)  returns 0x00 (0000ms, 0218ms total)
T2760 000:453 JLINK_WriteReg(R6, 0x00000000)  returns 0x00 (0000ms, 0218ms total)
T2760 000:453 JLINK_WriteReg(R7, 0x00000000)  returns 0x00 (0000ms, 0218ms total)
T2760 000:453 JLINK_WriteReg(R8, 0x00000000)  returns 0x00 (0000ms, 0218ms total)
T2760 000:453 JLINK_WriteReg(R9, 0x200000F4)  returns 0x00 (0000ms, 0218ms total)
T2760 000:453 JLINK_WriteReg(R10, 0x00000000)  returns 0x00 (0000ms, 0218ms total)
T2760 000:453 JLINK_WriteReg(R11, 0x00000000)  returns 0x00 (0000ms, 0218ms total)
T2760 000:453 JLINK_WriteReg(R12, 0x00000000)  returns 0x00 (0000ms, 0218ms total)
T2760 000:453 JLINK_WriteReg(R13 (SP), 0x20001000)  returns 0x00 (0000ms, 0218ms total)
T2760 000:453 JLINK_WriteReg(R14, 0x20000001)  returns 0x00 (0000ms, 0218ms total)
T2760 000:453 JLINK_WriteReg(R15 (PC), 0x20000038)  returns 0x00 (0000ms, 0218ms total)
T2760 000:453 JLINK_WriteReg(XPSR, 0x01000000)  returns 0x00 (0000ms, 0218ms total)
T2760 000:453 JLINK_WriteReg(MSP, 0x20001000)  returns 0x00 (0000ms, 0218ms total)
T2760 000:453 JLINK_WriteReg(PSP, 0x20001000)  returns 0x00 (0000ms, 0218ms total)
T2760 000:453 JLINK_WriteReg(CFBP, 0x00000000)  returns 0x00 (0000ms, 0218ms total)
T2760 000:453 JLINK_SetBPEx(Addr = 0x20000000, Type = 0xFFFFFFF2) -- CPU_ReadMem(2 bytes @ 0x20000000)  returns 0x00000005 (0000ms, 0218ms total)
T2760 000:453 JLINK_Go() -- CPU_WriteMem(2 bytes @ 0x20000000) -- CPU_ReadMem(4 bytes @ 0xE0001000) -- CPU_WriteMem(4 bytes @ 0xE0001000) (0003ms, 0221ms total)
T2760 000:456 JLINK_IsHalted() -- CPU_ReadMem(2 bytes @ 0x20000000)  returns TRUE (0003ms, 0224ms total)
T2760 000:459 JLINK_ReadReg(R15 (PC))  returns 0x20000000 (0000ms, 0221ms total)
T2760 000:459 JLINK_ClrBPEx(BPHandle = 0x00000005)  returns 0x00 (0000ms, 0221ms total)
T2760 000:459 JLINK_ReadReg(R0)  returns 0x00000000 (0000ms, 0221ms total)
T2760 000:459 JLINK_WriteMem(0x200000FC, 0x0040 Bytes, ...) - Data: A8 05 00 20 91 01 00 00 99 01 00 00 9B 01 00 00 ... -- CPU_WriteMem(64 bytes @ 0x200000FC)  returns 0x40 (0001ms, 0222ms total)
T2760 000:460 JLINK_WriteReg(R0, 0x00000000)  returns 0x00 (0000ms, 0222ms total)
T2760 000:460 JLINK_WriteReg(R1, 0x00000040)  returns 0x00 (0000ms, 0222ms total)
T2760 000:460 JLINK_WriteReg(R2, 0x200000FC)  returns 0x00 (0000ms, 0222ms total)
T2760 000:460 JLINK_WriteReg(R3, 0x00000000)  returns 0x00 (0000ms, 0222ms total)
T2760 000:460 JLINK_WriteReg(R4, 0x00000000)  returns 0x00 (0000ms, 0222ms total)
T2760 000:460 JLINK_WriteReg(R5, 0x00000000)  returns 0x00 (0000ms, 0222ms total)
T2760 000:460 JLINK_WriteReg(R6, 0x00000000)  returns 0x00 (0000ms, 0222ms total)
T2760 000:460 JLINK_WriteReg(R7, 0x00000000)  returns 0x00 (0000ms, 0222ms total)
T2760 000:460 JLINK_WriteReg(R8, 0x00000000)  returns 0x00 (0000ms, 0222ms total)
T2760 000:460 JLINK_WriteReg(R9, 0x200000F4)  returns 0x00 (0000ms, 0222ms total)
T2760 000:460 JLINK_WriteReg(R10, 0x00000000)  returns 0x00 (0000ms, 0222ms total)
T2760 000:460 JLINK_WriteReg(R11, 0x00000000)  returns 0x00 (0000ms, 0222ms total)
T2760 000:460 JLINK_WriteReg(R12, 0x00000000)  returns 0x00 (0000ms, 0222ms total)
T2760 000:460 JLINK_WriteReg(R13 (SP), 0x20001000)  returns 0x00 (0000ms, 0222ms total)
T2760 000:460 JLINK_WriteReg(R14, 0x20000001)  returns 0x00 (0001ms, 0223ms total)
T2760 000:461 JLINK_WriteReg(R15 (PC), 0x200000A6)  returns 0x00 (0000ms, 0223ms total)
T2760 000:461 JLINK_WriteReg(XPSR, 0x01000000)  returns 0x00 (0000ms, 0223ms total)
T2760 000:461 JLINK_WriteReg(MSP, 0x20001000)  returns 0x00 (0000ms, 0223ms total)
T2760 000:461 JLINK_WriteReg(PSP, 0x20001000)  returns 0x00 (0000ms, 0223ms total)
T2760 000:461 JLINK_WriteReg(CFBP, 0x00000000)  returns 0x00 (0000ms, 0223ms total)
T2760 000:461 JLINK_SetBPEx(Addr = 0x20000000, Type = 0xFFFFFFF2)  returns 0x00000006 (0000ms, 0223ms total)
T2760 000:461 JLINK_Go() -- CPU_ReadMem(4 bytes @ 0xE0001000) -- CPU_WriteMem(4 bytes @ 0xE0001000) (0002ms, 0225ms total)
T2760 000:463 JLINK_IsHalted() -- CPU_ReadMem(4 bytes @ 0x41002100)  returns FALSE (0001ms, 0226ms total)
T2760 000:492 JLINK_IsHalted() -- CPU_ReadMem(2 bytes @ 0x20000000)  returns TRUE (0003ms, 0228ms total)
T2760 000:495 JLINK_ReadReg(R15 (PC))  returns 0x20000000 (0000ms, 0225ms total)
T2760 000:495 JLINK_ClrBPEx(BPHandle = 0x00000006)  returns 0x00 (0000ms, 0225ms total)
T2760 000:495 JLINK_ReadReg(R0)  returns 0x00000000 (0000ms, 0225ms total)
T2760 000:495 JLINK_WriteMem(0x200000FC, 0x0040 Bytes, ...) - Data: A3 01 00 00 A3 01 00 00 A3 01 00 00 A3 01 00 00 ... -- CPU_WriteMem(64 bytes @ 0x200000FC)  returns 0x40 (0002ms, 0227ms total)
T2760 000:497 JLINK_WriteReg(R0, 0x00000040)  returns 0x00 (0000ms, 0227ms total)
T2760 000:497 JLINK_WriteReg(R1, 0x00000040)  returns 0x00 (0000ms, 0227ms total)
T2760 000:497 JLINK_WriteReg(R2, 0x200000FC)  returns 0x00 (0000ms, 0227ms total)
T2760 000:497 JLINK_WriteReg(R3, 0x00000000)  returns 0x00 (0000ms, 0227ms total)
T2760 000:497 JLINK_WriteReg(R4, 0x00000000)  returns 0x00 (0000ms, 0227ms total)
T2760 000:497 JLINK_WriteReg(R5, 0x00000000)  returns 0x00 (0000ms, 0227ms total)
T2760 000:497 JLINK_WriteReg(R6, 0x00000000)  returns 0x00 (0000ms, 0227ms total)
T2760 000:497 JLINK_WriteReg(R7, 0x00000000)  returns 0x00 (0000ms, 0227ms total)
T2760 000:497 JLINK_WriteReg(R8, 0x00000000)  returns 0x00 (0000ms, 0227ms total)
T2760 000:497 JLINK_WriteReg(R9, 0x200000F4)  returns 0x00 (0000ms, 0227ms total)
T2760 000:497 JLINK_WriteReg(R10, 0x00000000)  returns 0x00 (0000ms, 0227ms total)
T2760 000:497 JLINK_WriteReg(R11, 0x00000000)  returns 0x00 (0000ms, 0227ms total)
T2760 000:497 JLINK_WriteReg(R12, 0x00000000)  returns 0x00 (0000ms, 0227ms total)
T2760 000:497 JLINK_WriteReg(R13 (SP), 0x20001000)  returns 0x00 (0000ms, 0227ms total)
T2760 000:497 JLINK_WriteReg(R14, 0x20000001)  returns 0x00 (0000ms, 0227ms total)
T2760 000:497 JLINK_WriteReg(R15 (PC), 0x200000A6)  returns 0x00 (0000ms, 0227ms total)
T2760 000:497 JLINK_WriteReg(XPSR, 0x01000000)  returns 0x00 (0000ms, 0227ms total)
T2760 000:497 JLINK_WriteReg(MSP, 0x20001000)  returns 0x00 (0000ms, 0227ms total)
T2760 000:497 JLINK_WriteReg(PSP, 0x20001000)  returns 0x00 (0000ms, 0227ms total)
T2760 000:497 JLINK_WriteReg(CFBP, 0x00000000)  returns 0x00 (0000ms, 0227ms total)
T2760 000:497 JLINK_SetBPEx(Addr = 0x20000000, Type = 0xFFFFFFF2)  returns 0x00000007 (0000ms, 0227ms total)
T2760 000:497 JLINK_Go() -- CPU_ReadMem(4 bytes @ 0xE0001000) -- CPU_WriteMem(4 bytes @ 0xE0001000) (0002ms, 0229ms total)
T2760 000:499 JLINK_IsHalted() -- CPU_ReadMem(4 bytes @ 0x41002100)  returns FALSE (0001ms, 0230ms total)
T2760 000:512 JLINK_IsHalted() -- CPU_ReadMem(2 bytes @ 0x20000000)  returns TRUE (0003ms, 0232ms total)
T2760 000:515 JLINK_ReadReg(R15 (PC))  returns 0x20000000 (0000ms, 0229ms total)
T2760 000:515 JLINK_ClrBPEx(BPHandle = 0x00000007)  returns 0x00 (0000ms, 0229ms total)
T2760 000:515 JLINK_ReadReg(R0)  returns 0x00000000 (0000ms, 0229ms total)
T2760 000:515 JLINK_WriteMem(0x200000FC, 0x0040 Bytes, ...) - Data: A3 01 00 00 A3 01 00 00 09 06 00 00 A3 01 00 00 ... -- CPU_WriteMem(64 bytes @ 0x200000FC)  returns 0x40 (0002ms, 0231ms total)
T2760 000:517 JLINK_WriteReg(R0, 0x00000080)  returns 0x00 (0000ms, 0231ms total)
T2760 000:517 JLINK_WriteReg(R1, 0x00000040)  returns 0x00 (0000ms, 0231ms total)
T2760 000:517 JLINK_WriteReg(R2, 0x200000FC)  returns 0x00 (0000ms, 0231ms total)
T2760 000:517 JLINK_WriteReg(R3, 0x00000000)  returns 0x00 (0000ms, 0231ms total)
T2760 000:517 JLINK_WriteReg(R4, 0x00000000)  returns 0x00 (0000ms, 0231ms total)
T2760 000:517 JLINK_WriteReg(R5, 0x00000000)  returns 0x00 (0000ms, 0231ms total)
T2760 000:517 JLINK_WriteReg(R6, 0x00000000)  returns 0x00 (0000ms, 0231ms total)
T2760 000:517 JLINK_WriteReg(R7, 0x00000000)  returns 0x00 (0000ms, 0231ms total)
T2760 000:517 JLINK_WriteReg(R8, 0x00000000)  returns 0x00 (0000ms, 0231ms total)
T2760 000:517 JLINK_WriteReg(R9, 0x200000F4)  returns 0x00 (0000ms, 0231ms total)
T2760 000:517 JLINK_WriteReg(R10, 0x00000000)  returns 0x00 (0000ms, 0231ms total)
T2760 000:517 JLINK_WriteReg(R11, 0x00000000)  returns 0x00 (0000ms, 0231ms total)
T2760 000:517 JLINK_WriteReg(R12, 0x00000000)  returns 0x00 (0000ms, 0231ms total)
T2760 000:517 JLINK_WriteReg(R13 (SP), 0x20001000)  returns 0x00 (0000ms, 0231ms total)
T2760 000:517 JLINK_WriteReg(R14, 0x20000001)  returns 0x00 (0000ms, 0231ms total)
T2760 000:517 JLINK_WriteReg(R15 (PC), 0x200000A6)  returns 0x00 (0000ms, 0231ms total)
T2760 000:517 JLINK_WriteReg(XPSR, 0x01000000)  returns 0x00 (0000ms, 0231ms total)
T2760 000:517 JLINK_WriteReg(MSP, 0x20001000)  returns 0x00 (0000ms, 0231ms total)
T2760 000:517 JLINK_WriteReg(PSP, 0x20001000)  returns 0x00 (0000ms, 0231ms total)
T2760 000:517 JLINK_WriteReg(CFBP, 0x00000000)  returns 0x00 (0000ms, 0231ms total)
T2760 000:517 JLINK_SetBPEx(Addr = 0x20000000, Type = 0xFFFFFFF2)  returns 0x00000008 (0000ms, 0231ms total)
T2760 000:517 JLINK_Go() -- CPU_ReadMem(4 bytes @ 0xE0001000) -- CPU_WriteMem(4 bytes @ 0xE0001000) (0002ms, 0233ms total)
T2760 000:519 JLINK_IsHalted() -- CPU_ReadMem(2 bytes @ 0x20000000)  returns TRUE (0003ms, 0236ms total)
T2760 000:522 JLINK_ReadReg(R15 (PC))  returns 0x20000000 (0000ms, 0233ms total)
T2760 000:522 JLINK_ClrBPEx(BPHandle = 0x00000008)  returns 0x00 (0000ms, 0233ms total)
T2760 000:522 JLINK_ReadReg(R0)  returns 0x00000000 (0000ms, 0233ms total)
T2760 000:523 JLINK_WriteMem(0x200000FC, 0x0040 Bytes, ...) - Data: 08 38 24 18 2D 18 A2 46 67 1E AB 46 54 46 5D 46 ... -- CPU_WriteMem(64 bytes @ 0x200000FC)  returns 0x40 (0001ms, 0234ms total)
T2760 000:524 JLINK_WriteReg(R0, 0x000000C0)  returns 0x00 (0000ms, 0234ms total)
T2760 000:524 JLINK_WriteReg(R1, 0x00000040)  returns 0x00 (0000ms, 0234ms total)
T2760 000:524 JLINK_WriteReg(R2, 0x200000FC)  returns 0x00 (0000ms, 0234ms total)
T2760 000:524 JLINK_WriteReg(R3, 0x00000000)  returns 0x00 (0000ms, 0234ms total)
T2760 000:524 JLINK_WriteReg(R4, 0x00000000)  returns 0x00 (0000ms, 0234ms total)
T2760 000:524 JLINK_WriteReg(R5, 0x00000000)  returns 0x00 (0000ms, 0234ms total)
T2760 000:524 JLINK_WriteReg(R6, 0x00000000)  returns 0x00 (0000ms, 0234ms total)
T2760 000:524 JLINK_WriteReg(R7, 0x00000000)  returns 0x00 (0000ms, 0234ms total)
T2760 000:524 JLINK_WriteReg(R8, 0x00000000)  returns 0x00 (0000ms, 0234ms total)
T2760 000:524 JLINK_WriteReg(R9, 0x200000F4)  returns 0x00 (0000ms, 0234ms total)
T2760 000:524 JLINK_WriteReg(R10, 0x00000000)  returns 0x00 (0000ms, 0234ms total)
T2760 000:524 JLINK_WriteReg(R11, 0x00000000)  returns 0x00 (0000ms, 0234ms total)
T2760 000:524 JLINK_WriteReg(R12, 0x00000000)  returns 0x00 (0000ms, 0234ms total)
T2760 000:524 JLINK_WriteReg(R13 (SP), 0x20001000)  returns 0x00 (0000ms, 0234ms total)
T2760 000:524 JLINK_WriteReg(R14, 0x20000001)  returns 0x00 (0000ms, 0234ms total)
T2760 000:524 JLINK_WriteReg(R15 (PC), 0x200000A6)  returns 0x00 (0000ms, 0234ms total)
T2760 000:524 JLINK_WriteReg(XPSR, 0x01000000)  returns 0x00 (0000ms, 0234ms total)
T2760 000:524 JLINK_WriteReg(MSP, 0x20001000)  returns 0x00 (0000ms, 0234ms total)
T2760 000:524 JLINK_WriteReg(PSP, 0x20001000)  returns 0x00 (0000ms, 0234ms total)
T2760 000:524 JLINK_WriteReg(CFBP, 0x00000000)  returns 0x00 (0000ms, 0234ms total)
T2760 000:524 JLINK_SetBPEx(Addr = 0x20000000, Type = 0xFFFFFFF2)  returns 0x00000009 (0000ms, 0234ms total)
T2760 000:524 JLINK_Go() -- CPU_ReadMem(4 bytes @ 0xE0001000) -- CPU_WriteMem(4 bytes @ 0xE0001000) (0003ms, 0237ms total)
T2760 000:527 JLINK_IsHalted() -- CPU_ReadMem(4 bytes @ 0x41002100)  returns FALSE (0000ms, 0237ms total)
T2760 000:538 JLINK_IsHalted() -- CPU_ReadMem(2 bytes @ 0x20000000)  returns TRUE (0003ms, 0240ms total)
T2760 000:541 JLINK_ReadReg(R15 (PC))  returns 0x20000000 (0000ms, 0237ms total)
T2760 000:541 JLINK_ClrBPEx(BPHandle = 0x00000009)  returns 0x00 (0000ms, 0237ms total)
T2760 000:541 JLINK_ReadReg(R0)  returns 0x00000000 (0000ms, 0237ms total)
T2760 000:542 JLINK_WriteMem(0x200000FC, 0x0040 Bytes, ...) - Data: FA D8 52 07 01 D3 30 C8 30 C1 01 D5 04 68 0C 60 ... -- CPU_WriteMem(64 bytes @ 0x200000FC)  returns 0x40 (0001ms, 0238ms total)
T2760 000:543 JLINK_WriteReg(R0, 0x00000100)  returns 0x00 (0000ms, 0238ms total)
T2760 000:543 JLINK_WriteReg(R1, 0x00000040)  returns 0x00 (0000ms, 0238ms total)
T2760 000:543 JLINK_WriteReg(R2, 0x200000FC)  returns 0x00 (0000ms, 0238ms total)
T2760 000:543 JLINK_WriteReg(R3, 0x00000000)  returns 0x00 (0000ms, 0238ms total)
T2760 000:543 JLINK_WriteReg(R4, 0x00000000)  returns 0x00 (0000ms, 0238ms total)
T2760 000:543 JLINK_WriteReg(R5, 0x00000000)  returns 0x00 (0000ms, 0238ms total)
T2760 000:543 JLINK_WriteReg(R6, 0x00000000)  returns 0x00 (0000ms, 0238ms total)
T2760 000:544 JLINK_WriteReg(R7, 0x00000000)  returns 0x00 (0000ms, 0238ms total)
T2760 000:544 JLINK_WriteReg(R8, 0x00000000)  returns 0x00 (0000ms, 0238ms total)
T2760 000:544 JLINK_WriteReg(R9, 0x200000F4)  returns 0x00 (0000ms, 0238ms total)
T2760 000:544 JLINK_WriteReg(R10, 0x00000000)  returns 0x00 (0000ms, 0238ms total)
T2760 000:544 JLINK_WriteReg(R11, 0x00000000)  returns 0x00 (0000ms, 0238ms total)
T2760 000:544 JLINK_WriteReg(R12, 0x00000000)  returns 0x00 (0000ms, 0238ms total)
T2760 000:544 JLINK_WriteReg(R13 (SP), 0x20001000)  returns 0x00 (0000ms, 0238ms total)
T2760 000:544 JLINK_WriteReg(R14, 0x20000001)  returns 0x00 (0000ms, 0238ms total)
T2760 000:544 JLINK_WriteReg(R15 (PC), 0x200000A6)  returns 0x00 (0000ms, 0238ms total)
T2760 000:544 JLINK_WriteReg(XPSR, 0x01000000)  returns 0x00 (0000ms, 0238ms total)
T2760 000:544 JLINK_WriteReg(MSP, 0x20001000)  returns 0x00 (0000ms, 0238ms total)
T2760 000:544 JLINK_WriteReg(PSP, 0x20001000)  returns 0x00 (0000ms, 0238ms total)
T2760 000:544 JLINK_WriteReg(CFBP, 0x00000000)  returns 0x00 (0000ms, 0238ms total)
T2760 000:544 JLINK_SetBPEx(Addr = 0x20000000, Type = 0xFFFFFFF2)  returns 0x0000000A (0000ms, 0238ms total)
T2760 000:544 JLINK_Go() -- CPU_ReadMem(4 bytes @ 0xE0001000) -- CPU_WriteMem(4 bytes @ 0xE0001000) (0002ms, 0240ms total)
T2760 000:546 JLINK_IsHalted() -- CPU_ReadMem(2 bytes @ 0x20000000)  returns TRUE (0003ms, 0243ms total)
T2760 000:549 JLINK_ReadReg(R15 (PC))  returns 0x20000000 (0000ms, 0240ms total)
T2760 000:549 JLINK_ClrBPEx(BPHandle = 0x0000000A)  returns 0x00 (0000ms, 0240ms total)
T2760 000:549 JLINK_ReadReg(R0)  returns 0x00000000 (0000ms, 0240ms total)
T2760 000:550 JLINK_WriteMem(0x200000FC, 0x0040 Bytes, ...) - Data: F7 FF 00 F0 25 FE 00 F0 E2 F8 03 B4 FF F7 F2 FF ... -- CPU_WriteMem(64 bytes @ 0x200000FC)  returns 0x40 (0001ms, 0241ms total)
T2760 000:551 JLINK_WriteReg(R0, 0x00000140)  returns 0x00 (0000ms, 0241ms total)
T2760 000:551 JLINK_WriteReg(R1, 0x00000040)  returns 0x00 (0000ms, 0241ms total)
T2760 000:552 JLINK_WriteReg(R2, 0x200000FC)  returns 0x00 (0000ms, 0242ms total)
T2760 000:552 JLINK_WriteReg(R3, 0x00000000)  returns 0x00 (0000ms, 0242ms total)
T2760 000:552 JLINK_WriteReg(R4, 0x00000000)  returns 0x00 (0000ms, 0242ms total)
T2760 000:552 JLINK_WriteReg(R5, 0x00000000)  returns 0x00 (0000ms, 0242ms total)
T2760 000:552 JLINK_WriteReg(R6, 0x00000000)  returns 0x00 (0000ms, 0242ms total)
T2760 000:552 JLINK_WriteReg(R7, 0x00000000)  returns 0x00 (0000ms, 0242ms total)
T2760 000:552 JLINK_WriteReg(R8, 0x00000000)  returns 0x00 (0000ms, 0242ms total)
T2760 000:552 JLINK_WriteReg(R9, 0x200000F4)  returns 0x00 (0000ms, 0242ms total)
T2760 000:552 JLINK_WriteReg(R10, 0x00000000)  returns 0x00 (0000ms, 0242ms total)
T2760 000:552 JLINK_WriteReg(R11, 0x00000000)  returns 0x00 (0000ms, 0242ms total)
T2760 000:552 JLINK_WriteReg(R12, 0x00000000)  returns 0x00 (0000ms, 0242ms total)
T2760 000:552 JLINK_WriteReg(R13 (SP), 0x20001000)  returns 0x00 (0000ms, 0242ms total)
T2760 000:552 JLINK_WriteReg(R14, 0x20000001)  returns 0x00 (0000ms, 0242ms total)
T2760 000:552 JLINK_WriteReg(R15 (PC), 0x200000A6)  returns 0x00 (0000ms, 0242ms total)
T2760 000:552 JLINK_WriteReg(XPSR, 0x01000000)  returns 0x00 (0000ms, 0242ms total)
T2760 000:552 JLINK_WriteReg(MSP, 0x20001000)  returns 0x00 (0000ms, 0242ms total)
T2760 000:552 JLINK_WriteReg(PSP, 0x20001000)  returns 0x00 (0000ms, 0242ms total)
T2760 000:552 JLINK_WriteReg(CFBP, 0x00000000)  returns 0x00 (0000ms, 0242ms total)
T2760 000:552 JLINK_SetBPEx(Addr = 0x20000000, Type = 0xFFFFFFF2)  returns 0x0000000B (0000ms, 0242ms total)
T2760 000:552 JLINK_Go() -- CPU_ReadMem(4 bytes @ 0xE0001000) -- CPU_WriteMem(4 bytes @ 0xE0001000) (0002ms, 0244ms total)
T2760 000:555 JLINK_IsHalted() -- CPU_ReadMem(4 bytes @ 0x41002100)  returns FALSE (0000ms, 0245ms total)
T2760 000:564 JLINK_IsHalted() -- CPU_ReadMem(2 bytes @ 0x20000000)  returns TRUE (0003ms, 0248ms total)
T2760 000:567 JLINK_ReadReg(R15 (PC))  returns 0x20000000 (0000ms, 0245ms total)
T2760 000:567 JLINK_ClrBPEx(BPHandle = 0x0000000B)  returns 0x00 (0000ms, 0245ms total)
T2760 000:567 JLINK_ReadReg(R0)  returns 0x00000000 (0000ms, 0245ms total)
T2760 000:568 JLINK_WriteMem(0x200000FC, 0x0040 Bytes, ...) - Data: 03 E0 21 78 29 70 64 1C 6D 1C 76 1E F9 D2 70 BD ... -- CPU_WriteMem(64 bytes @ 0x200000FC)  returns 0x40 (0001ms, 0246ms total)
T2760 000:569 JLINK_WriteReg(R0, 0x00000180)  returns 0x00 (0000ms, 0246ms total)
T2760 000:569 JLINK_WriteReg(R1, 0x00000040)  returns 0x00 (0000ms, 0246ms total)
T2760 000:569 JLINK_WriteReg(R2, 0x200000FC)  returns 0x00 (0000ms, 0246ms total)
T2760 000:569 JLINK_WriteReg(R3, 0x00000000)  returns 0x00 (0000ms, 0246ms total)
T2760 000:569 JLINK_WriteReg(R4, 0x00000000)  returns 0x00 (0000ms, 0246ms total)
T2760 000:569 JLINK_WriteReg(R5, 0x00000000)  returns 0x00 (0000ms, 0246ms total)
T2760 000:569 JLINK_WriteReg(R6, 0x00000000)  returns 0x00 (0000ms, 0246ms total)
T2760 000:569 JLINK_WriteReg(R7, 0x00000000)  returns 0x00 (0000ms, 0246ms total)
T2760 000:569 JLINK_WriteReg(R8, 0x00000000)  returns 0x00 (0000ms, 0246ms total)
T2760 000:569 JLINK_WriteReg(R9, 0x200000F4)  returns 0x00 (0000ms, 0246ms total)
T2760 000:569 JLINK_WriteReg(R10, 0x00000000)  returns 0x00 (0000ms, 0246ms total)
T2760 000:569 JLINK_WriteReg(R11, 0x00000000)  returns 0x00 (0000ms, 0246ms total)
T2760 000:569 JLINK_WriteReg(R12, 0x00000000)  returns 0x00 (0000ms, 0246ms total)
T2760 000:569 JLINK_WriteReg(R13 (SP), 0x20001000)  returns 0x00 (0000ms, 0246ms total)
T2760 000:569 JLINK_WriteReg(R14, 0x20000001)  returns 0x00 (0000ms, 0246ms total)
T2760 000:569 JLINK_WriteReg(R15 (PC), 0x200000A6)  returns 0x00 (0000ms, 0246ms total)
T2760 000:569 JLINK_WriteReg(XPSR, 0x01000000)  returns 0x00 (0000ms, 0246ms total)
T2760 000:569 JLINK_WriteReg(MSP, 0x20001000)  returns 0x00 (0000ms, 0246ms total)
T2760 000:569 JLINK_WriteReg(PSP, 0x20001000)  returns 0x00 (0000ms, 0246ms total)
T2760 000:569 JLINK_WriteReg(CFBP, 0x00000000)  returns 0x00 (0000ms, 0246ms total)
T2760 000:569 JLINK_SetBPEx(Addr = 0x20000000, Type = 0xFFFFFFF2)  returns 0x0000000C (0000ms, 0246ms total)
T2760 000:569 JLINK_Go() -- CPU_ReadMem(4 bytes @ 0xE0001000) -- CPU_WriteMem(4 bytes @ 0xE0001000) (0003ms, 0249ms total)
T2760 000:572 JLINK_IsHalted() -- CPU_ReadMem(2 bytes @ 0x20000000)  returns TRUE (0004ms, 0253ms total)
T2760 000:576 JLINK_ReadReg(R15 (PC))  returns 0x20000000 (0000ms, 0249ms total)
T2760 000:576 JLINK_ClrBPEx(BPHandle = 0x0000000C)  returns 0x00 (0000ms, 0249ms total)
T2760 000:576 JLINK_ReadReg(R0)  returns 0x00000000 (0000ms, 0249ms total)
T2760 000:577 JLINK_WriteMem(0x200000FC, 0x0040 Bytes, ...) - Data: A8 03 00 20 30 B5 44 1C 03 E0 01 78 40 1C 00 29 ... -- CPU_WriteMem(64 bytes @ 0x200000FC)  returns 0x40 (0001ms, 0250ms total)
T2760 000:578 JLINK_WriteReg(R0, 0x000001C0)  returns 0x00 (0000ms, 0250ms total)
T2760 000:578 JLINK_WriteReg(R1, 0x00000040)  returns 0x00 (0000ms, 0250ms total)
T2760 000:578 JLINK_WriteReg(R2, 0x200000FC)  returns 0x00 (0000ms, 0250ms total)
T2760 000:578 JLINK_WriteReg(R3, 0x00000000)  returns 0x00 (0000ms, 0250ms total)
T2760 000:578 JLINK_WriteReg(R4, 0x00000000)  returns 0x00 (0000ms, 0250ms total)
T2760 000:578 JLINK_WriteReg(R5, 0x00000000)  returns 0x00 (0000ms, 0250ms total)
T2760 000:578 JLINK_WriteReg(R6, 0x00000000)  returns 0x00 (0000ms, 0250ms total)
T2760 000:578 JLINK_WriteReg(R7, 0x00000000)  returns 0x00 (0000ms, 0250ms total)
T2760 000:578 JLINK_WriteReg(R8, 0x00000000)  returns 0x00 (0000ms, 0250ms total)
T2760 000:578 JLINK_WriteReg(R9, 0x200000F4)  returns 0x00 (0000ms, 0250ms total)
T2760 000:578 JLINK_WriteReg(R10, 0x00000000)  returns 0x00 (0000ms, 0250ms total)
T2760 000:578 JLINK_WriteReg(R11, 0x00000000)  returns 0x00 (0000ms, 0250ms total)
T2760 000:578 JLINK_WriteReg(R12, 0x00000000)  returns 0x00 (0000ms, 0250ms total)
T2760 000:579 JLINK_WriteReg(R13 (SP), 0x20001000)  returns 0x00 (0000ms, 0250ms total)
T2760 000:579 JLINK_WriteReg(R14, 0x20000001)  returns 0x00 (0000ms, 0250ms total)
T2760 000:579 JLINK_WriteReg(R15 (PC), 0x200000A6)  returns 0x00 (0000ms, 0250ms total)
T2760 000:579 JLINK_WriteReg(XPSR, 0x01000000)  returns 0x00 (0000ms, 0250ms total)
T2760 000:579 JLINK_WriteReg(MSP, 0x20001000)  returns 0x00 (0000ms, 0250ms total)
T2760 000:579 JLINK_WriteReg(PSP, 0x20001000)  returns 0x00 (0000ms, 0250ms total)
T2760 000:579 JLINK_WriteReg(CFBP, 0x00000000)  returns 0x00 (0000ms, 0250ms total)
T2760 000:579 JLINK_SetBPEx(Addr = 0x20000000, Type = 0xFFFFFFF2)  returns 0x0000000D (0000ms, 0250ms total)
T2760 000:579 JLINK_Go() -- CPU_ReadMem(4 bytes @ 0xE0001000) -- CPU_WriteMem(4 bytes @ 0xE0001000) (0003ms, 0253ms total)
T2760 000:582 JLINK_IsHalted() -- CPU_ReadMem(2 bytes @ 0x20000000)  returns TRUE (0003ms, 0256ms total)
T2760 000:585 JLINK_ReadReg(R15 (PC))  returns 0x20000000 (0000ms, 0253ms total)
T2760 000:585 JLINK_ClrBPEx(BPHandle = 0x0000000D)  returns 0x00 (0000ms, 0253ms total)
T2760 000:585 JLINK_ReadReg(R0)  returns 0x00000000 (0000ms, 0253ms total)
T2760 000:587 JLINK_WriteMem(0x200000FC, 0x0040 Bytes, ...) - Data: 30 BD 00 00 01 01 01 01 F8 B5 04 2A 2C D3 83 07 ... -- CPU_WriteMem(64 bytes @ 0x200000FC)  returns 0x40 (0001ms, 0254ms total)
T2760 000:588 JLINK_WriteReg(R0, 0x00000200)  returns 0x00 (0000ms, 0254ms total)
T2760 000:588 JLINK_WriteReg(R1, 0x00000040)  returns 0x00 (0000ms, 0254ms total)
T2760 000:588 JLINK_WriteReg(R2, 0x200000FC)  returns 0x00 (0000ms, 0254ms total)
T2760 000:588 JLINK_WriteReg(R3, 0x00000000)  returns 0x00 (0000ms, 0254ms total)
T2760 000:588 JLINK_WriteReg(R4, 0x00000000)  returns 0x00 (0000ms, 0254ms total)
T2760 000:588 JLINK_WriteReg(R5, 0x00000000)  returns 0x00 (0000ms, 0254ms total)
T2760 000:588 JLINK_WriteReg(R6, 0x00000000)  returns 0x00 (0000ms, 0254ms total)
T2760 000:588 JLINK_WriteReg(R7, 0x00000000)  returns 0x00 (0000ms, 0254ms total)
T2760 000:588 JLINK_WriteReg(R8, 0x00000000)  returns 0x00 (0000ms, 0254ms total)
T2760 000:588 JLINK_WriteReg(R9, 0x200000F4)  returns 0x00 (0000ms, 0254ms total)
T2760 000:588 JLINK_WriteReg(R10, 0x00000000)  returns 0x00 (0000ms, 0254ms total)
T2760 000:588 JLINK_WriteReg(R11, 0x00000000)  returns 0x00 (0000ms, 0254ms total)
T2760 000:588 JLINK_WriteReg(R12, 0x00000000)  returns 0x00 (0000ms, 0254ms total)
T2760 000:588 JLINK_WriteReg(R13 (SP), 0x20001000)  returns 0x00 (0000ms, 0254ms total)
T2760 000:588 JLINK_WriteReg(R14, 0x20000001)  returns 0x00 (0000ms, 0254ms total)
T2760 000:588 JLINK_WriteReg(R15 (PC), 0x200000A6)  returns 0x00 (0000ms, 0254ms total)
T2760 000:589 JLINK_WriteReg(XPSR, 0x01000000)  returns 0x00 (0000ms, 0255ms total)
T2760 000:589 JLINK_WriteReg(MSP, 0x20001000)  returns 0x00 (0000ms, 0255ms total)
T2760 000:589 JLINK_WriteReg(PSP, 0x20001000)  returns 0x00 (0000ms, 0255ms total)
T2760 000:589 JLINK_WriteReg(CFBP, 0x00000000)  returns 0x00 (0000ms, 0255ms total)
T2760 000:589 JLINK_SetBPEx(Addr = 0x20000000, Type = 0xFFFFFFF2)  returns 0x0000000E (0000ms, 0255ms total)
T2760 000:589 JLINK_Go() -- CPU_ReadMem(4 bytes @ 0xE0001000) -- CPU_WriteMem(4 bytes @ 0xE0001000) (0003ms, 0258ms total)
T2760 000:592 JLINK_IsHalted() -- CPU_ReadMem(2 bytes @ 0x20000000)  returns TRUE (0003ms, 0261ms total)
T2760 000:595 JLINK_ReadReg(R15 (PC))  returns 0x20000000 (0000ms, 0258ms total)
T2760 000:595 JLINK_ClrBPEx(BPHandle = 0x0000000E)  returns 0x00 (0000ms, 0258ms total)
T2760 000:595 JLINK_ReadReg(R0)  returns 0x00000000 (0000ms, 0258ms total)
T2760 000:596 JLINK_WriteMem(0x200000FC, 0x0040 Bytes, ...) - Data: DF 00 20 23 DE 1B 08 C9 0A E0 FF F7 85 FF F8 BD ... -- CPU_WriteMem(64 bytes @ 0x200000FC)  returns 0x40 (0001ms, 0259ms total)
T2760 000:597 JLINK_WriteReg(R0, 0x00000240)  returns 0x00 (0000ms, 0259ms total)
T2760 000:597 JLINK_WriteReg(R1, 0x00000040)  returns 0x00 (0000ms, 0259ms total)
T2760 000:597 JLINK_WriteReg(R2, 0x200000FC)  returns 0x00 (0000ms, 0259ms total)
T2760 000:597 JLINK_WriteReg(R3, 0x00000000)  returns 0x00 (0000ms, 0259ms total)
T2760 000:597 JLINK_WriteReg(R4, 0x00000000)  returns 0x00 (0000ms, 0259ms total)
T2760 000:597 JLINK_WriteReg(R5, 0x00000000)  returns 0x00 (0000ms, 0259ms total)
T2760 000:597 JLINK_WriteReg(R6, 0x00000000)  returns 0x00 (0000ms, 0259ms total)
T2760 000:597 JLINK_WriteReg(R7, 0x00000000)  returns 0x00 (0000ms, 0259ms total)
T2760 000:597 JLINK_WriteReg(R8, 0x00000000)  returns 0x00 (0001ms, 0260ms total)
T2760 000:598 JLINK_WriteReg(R9, 0x200000F4)  returns 0x00 (0000ms, 0260ms total)
T2760 000:598 JLINK_WriteReg(R10, 0x00000000)  returns 0x00 (0000ms, 0260ms total)
T2760 000:598 JLINK_WriteReg(R11, 0x00000000)  returns 0x00 (0000ms, 0260ms total)
T2760 000:598 JLINK_WriteReg(R12, 0x00000000)  returns 0x00 (0000ms, 0260ms total)
T2760 000:598 JLINK_WriteReg(R13 (SP), 0x20001000)  returns 0x00 (0000ms, 0260ms total)
T2760 000:598 JLINK_WriteReg(R14, 0x20000001)  returns 0x00 (0000ms, 0260ms total)
T2760 000:598 JLINK_WriteReg(R15 (PC), 0x200000A6)  returns 0x00 (0000ms, 0260ms total)
T2760 000:598 JLINK_WriteReg(XPSR, 0x01000000)  returns 0x00 (0000ms, 0260ms total)
T2760 000:598 JLINK_WriteReg(MSP, 0x20001000)  returns 0x00 (0000ms, 0260ms total)
T2760 000:598 JLINK_WriteReg(PSP, 0x20001000)  returns 0x00 (0000ms, 0260ms total)
T2760 000:598 JLINK_WriteReg(CFBP, 0x00000000)  returns 0x00 (0000ms, 0260ms total)
T2760 000:598 JLINK_SetBPEx(Addr = 0x20000000, Type = 0xFFFFFFF2)  returns 0x0000000F (0000ms, 0260ms total)
T2760 000:598 JLINK_Go() -- CPU_ReadMem(4 bytes @ 0xE0001000) -- CPU_WriteMem(4 bytes @ 0xE0001000) (0003ms, 0263ms total)
T2760 000:601 JLINK_IsHalted() -- CPU_ReadMem(2 bytes @ 0x20000000)  returns TRUE (0003ms, 0266ms total)
T2760 000:604 JLINK_ReadReg(R15 (PC))  returns 0x20000000 (0000ms, 0263ms total)
T2760 000:604 JLINK_ClrBPEx(BPHandle = 0x0000000F)  returns 0x00 (0000ms, 0263ms total)
T2760 000:604 JLINK_ReadReg(R0)  returns 0x00000000 (0000ms, 0263ms total)
T2760 000:605 JLINK_WriteMem(0x200000FC, 0x0040 Bytes, ...) - Data: 01 2A E4 D4 09 78 01 70 F8 BD 01 E0 04 C0 09 1F ... -- CPU_WriteMem(64 bytes @ 0x200000FC)  returns 0x40 (0001ms, 0264ms total)
T2760 000:606 JLINK_WriteReg(R0, 0x00000280)  returns 0x00 (0000ms, 0264ms total)
T2760 000:606 JLINK_WriteReg(R1, 0x00000040)  returns 0x00 (0000ms, 0264ms total)
T2760 000:606 JLINK_WriteReg(R2, 0x200000FC)  returns 0x00 (0000ms, 0264ms total)
T2760 000:606 JLINK_WriteReg(R3, 0x00000000)  returns 0x00 (0000ms, 0264ms total)
T2760 000:606 JLINK_WriteReg(R4, 0x00000000)  returns 0x00 (0000ms, 0264ms total)
T2760 000:606 JLINK_WriteReg(R5, 0x00000000)  returns 0x00 (0000ms, 0264ms total)
T2760 000:606 JLINK_WriteReg(R6, 0x00000000)  returns 0x00 (0000ms, 0264ms total)
T2760 000:606 JLINK_WriteReg(R7, 0x00000000)  returns 0x00 (0000ms, 0264ms total)
T2760 000:606 JLINK_WriteReg(R8, 0x00000000)  returns 0x00 (0000ms, 0264ms total)
T2760 000:606 JLINK_WriteReg(R9, 0x200000F4)  returns 0x00 (0000ms, 0264ms total)
T2760 000:606 JLINK_WriteReg(R10, 0x00000000)  returns 0x00 (0000ms, 0264ms total)
T2760 000:606 JLINK_WriteReg(R11, 0x00000000)  returns 0x00 (0000ms, 0264ms total)
T2760 000:607 JLINK_WriteReg(R12, 0x00000000)  returns 0x00 (0000ms, 0265ms total)
T2760 000:607 JLINK_WriteReg(R13 (SP), 0x20001000)  returns 0x00 (0000ms, 0265ms total)
T2760 000:607 JLINK_WriteReg(R14, 0x20000001)  returns 0x00 (0000ms, 0265ms total)
T2760 000:607 JLINK_WriteReg(R15 (PC), 0x200000A6)  returns 0x00 (0000ms, 0265ms total)
T2760 000:607 JLINK_WriteReg(XPSR, 0x01000000)  returns 0x00 (0000ms, 0265ms total)
T2760 000:607 JLINK_WriteReg(MSP, 0x20001000)  returns 0x00 (0000ms, 0265ms total)
T2760 000:607 JLINK_WriteReg(PSP, 0x20001000)  returns 0x00 (0000ms, 0265ms total)
T2760 000:607 JLINK_WriteReg(CFBP, 0x00000000)  returns 0x00 (0000ms, 0265ms total)
T2760 000:607 JLINK_SetBPEx(Addr = 0x20000000, Type = 0xFFFFFFF2)  returns 0x00000010 (0000ms, 0265ms total)
T2760 000:607 JLINK_Go() -- CPU_ReadMem(4 bytes @ 0xE0001000) -- CPU_WriteMem(4 bytes @ 0xE0001000) (0002ms, 0267ms total)
T2760 000:609 JLINK_IsHalted() -- CPU_ReadMem(2 bytes @ 0x20000000)  returns TRUE (0004ms, 0271ms total)
T2760 000:613 JLINK_ReadReg(R15 (PC))  returns 0x20000000 (0000ms, 0267ms total)
T2760 000:613 JLINK_ClrBPEx(BPHandle = 0x00000010)  returns 0x00 (0000ms, 0267ms total)
T2760 000:613 JLINK_ReadReg(R0)  returns 0x00000000 (0000ms, 0267ms total)
T2760 000:614 JLINK_WriteMem(0x200000FC, 0x0040 Bytes, ...) - Data: E3 E7 00 22 EE E7 00 22 DF E7 70 47 70 47 70 47 ... -- CPU_WriteMem(64 bytes @ 0x200000FC)  returns 0x40 (0001ms, 0268ms total)
T2760 000:615 JLINK_WriteReg(R0, 0x000002C0)  returns 0x00 (0000ms, 0268ms total)
T2760 000:615 JLINK_WriteReg(R1, 0x00000040)  returns 0x00 (0000ms, 0268ms total)
T2760 000:615 JLINK_WriteReg(R2, 0x200000FC)  returns 0x00 (0000ms, 0268ms total)
T2760 000:615 JLINK_WriteReg(R3, 0x00000000)  returns 0x00 (0000ms, 0268ms total)
T2760 000:615 JLINK_WriteReg(R4, 0x00000000)  returns 0x00 (0000ms, 0268ms total)
T2760 000:615 JLINK_WriteReg(R5, 0x00000000)  returns 0x00 (0000ms, 0268ms total)
T2760 000:615 JLINK_WriteReg(R6, 0x00000000)  returns 0x00 (0000ms, 0268ms total)
T2760 000:615 JLINK_WriteReg(R7, 0x00000000)  returns 0x00 (0000ms, 0268ms total)
T2760 000:615 JLINK_WriteReg(R8, 0x00000000)  returns 0x00 (0000ms, 0268ms total)
T2760 000:615 JLINK_WriteReg(R9, 0x200000F4)  returns 0x00 (0000ms, 0268ms total)
T2760 000:615 JLINK_WriteReg(R10, 0x00000000)  returns 0x00 (0000ms, 0268ms total)
T2760 000:615 JLINK_WriteReg(R11, 0x00000000)  returns 0x00 (0000ms, 0268ms total)
T2760 000:615 JLINK_WriteReg(R12, 0x00000000)  returns 0x00 (0001ms, 0269ms total)
T2760 000:616 JLINK_WriteReg(R13 (SP), 0x20001000)  returns 0x00 (0000ms, 0269ms total)
T2760 000:616 JLINK_WriteReg(R14, 0x20000001)  returns 0x00 (0000ms, 0269ms total)
T2760 000:616 JLINK_WriteReg(R15 (PC), 0x200000A6)  returns 0x00 (0000ms, 0269ms total)
T2760 000:616 JLINK_WriteReg(XPSR, 0x01000000)  returns 0x00 (0000ms, 0269ms total)
T2760 000:616 JLINK_WriteReg(MSP, 0x20001000)  returns 0x00 (0000ms, 0269ms total)
T2760 000:616 JLINK_WriteReg(PSP, 0x20001000)  returns 0x00 (0000ms, 0269ms total)
T2760 000:616 JLINK_WriteReg(CFBP, 0x00000000)  returns 0x00 (0000ms, 0269ms total)
T2760 000:616 JLINK_SetBPEx(Addr = 0x20000000, Type = 0xFFFFFFF2)  returns 0x00000011 (0000ms, 0269ms total)
T2760 000:616 JLINK_Go() -- CPU_ReadMem(4 bytes @ 0xE0001000) -- CPU_WriteMem(4 bytes @ 0xE0001000) (0003ms, 0272ms total)
T2760 000:619 JLINK_IsHalted() -- CPU_ReadMem(2 bytes @ 0x20000000)  returns TRUE (0003ms, 0275ms total)
T2760 000:623 JLINK_ReadReg(R15 (PC))  returns 0x20000000 (0000ms, 0272ms total)
T2760 000:623 JLINK_ClrBPEx(BPHandle = 0x00000011)  returns 0x00 (0000ms, 0272ms total)
T2760 000:623 JLINK_ReadReg(R0)  returns 0x00000000 (0000ms, 0272ms total)
T2760 000:624 JLINK_WriteMem(0x200000FC, 0x0040 Bytes, ...) - Data: C0 C5 C0 C5 C0 C5 40 3D 49 00 8D 46 70 47 10 B5 ... -- CPU_WriteMem(64 bytes @ 0x200000FC)  returns 0x40 (0001ms, 0273ms total)
T2760 000:625 JLINK_WriteReg(R0, 0x00000300)  returns 0x00 (0000ms, 0273ms total)
T2760 000:625 JLINK_WriteReg(R1, 0x00000040)  returns 0x00 (0000ms, 0273ms total)
T2760 000:625 JLINK_WriteReg(R2, 0x200000FC)  returns 0x00 (0000ms, 0273ms total)
